frequency,V(+v),V(n003),V(n002),V(n004),V(n001),V(-v),V(n005),V(y),V(x),I(C2),I(C1),I(I1),I(R4),I(R6),I(R5),I(R3),I(R2),I(R1),I(V2),I(V5),I(V4),I(V3),I(V1),Ix(u1:1),Ix(u1:2),Ix(u1:3),Ix(u1:4),Ix(u1:5),Ix(u2:1),Ix(u2:2),Ix(u2:3),Ix(u2:4),Ix(u2:5)
0.1,0.0,8.976943811944693e-05,8.976943811944693e-05,8.976943811944693e-05,4.488441604858919e-05,0.0,1.3398598395912332e-06,2.6797377697579357e-06,-0.9999973202622302,-2.21058433098387e-19,-7.368614321905407e-18,1.0,2.6797377697579356e-08,1.3398779301667025e-09,1.3398598395912333e-09,4.488502207085774e-08,4.488441604858919e-08,8.976943811944693e-07,-2.8137255625191204e-08,0.4999995111916699,9.425794033068868e-07,0.9999990574205967,0.4999995111916699,-6.059372053687411e-13,6.060148999400559e-13,-0.49999952536029735,-0.49999952536029735,0.999999057420597,-1.8088035489191472e-14,1.809035441089787e-14,1.4168627350405163e-08,1.4168627350405163e-08,-2.813725562858402e-08
0.10797751623277096,0.0,8.976943840366403e-05,8.976943840366403e-05,8.976943840366403e-05,4.488441619049301e-05,0.0,1.3398598438594502e-06,2.679737778306653e-06,-0.9999973202622217,-2.5773521065165595e-19,-8.591173554649406e-18,1.0,2.679737778306653e-08,1.3398779344472028e-09,1.3398598438594503e-09,4.4885022213171017e-08,4.488441619049301e-08,8.976943840366403e-07,-2.8137255715396825e-08,0.49999951119166836,9.425794061934667e-07,0.9999990574205938,0.49999951119166836,-6.059367997701978e-13,6.06014086827521e-13,-0.49999952536029585,-0.49999952536029585,0.9999990574205939,-1.8088023321384865e-14,1.8090330017671348e-14,1.4168627395380198e-08,1.4168627395380198e-08,-2.8137255718521867e-08
0.11659144011798317,0.0,8.976943873051368e-05,8.976943873051368e-05,8.976943873051368e-05,4.488441635367917e-05,0.0,1.3398598489593145e-06,2.679737788520705e-06,-0.9999973202622114,-3.0049719378988087e-19,-1.001657297040099e-17,1.0,2.6797377885207047e-08,1.3398779395613904e-09,1.3398598489593145e-09,4.488502237683452e-08,4.488441635367917e-08,8.976943873051368e-07,-2.813725582294968e-08,0.49999951119166636,9.425794097461804e-07,0.9999990574205903,0.49999951119166636,-6.059363268464842e-13,6.060131387773719e-13,-0.4999995253602939,-0.4999995253602939,0.9999990574205901,-1.808800913643101e-14,1.8090301578924566e-14,1.416862744868373e-08,1.416862744868373e-08,-2.8137255825114677e-08
0.12589254117941673,0.0,8.976943912841762e-05,8.976943912841762e-05,8.976943912841762e-05,4.4884416552352804e-05,0.0,1.3398598547241254e-06,2.6797378000670243e-06,-0.9999973202621999,-3.5035400575374556e-19,-1.1678466676659052e-17,1.0,2.6797378000670244e-08,1.3398779453428988e-09,1.3398598547241254e-09,4.488502257606481e-08,4.4884416552352806e-08,8.976943912841761e-07,-2.8137255944380324e-08,0.4999995111916644,9.425794138540056e-07,0.9999990574205861,0.4999995111916644,-6.059357755714851e-13,6.060120335456342e-13,-0.499999525360292,-0.499999525360292,0.9999990574205864,-1.8087992595542908e-14,1.8090268419333704e-14,1.4168627510316064e-08,1.4168627510316064e-08,-2.8137255948362732e-08
0.13593563908785256,0.0,8.976943958316497e-05,8.976943958316497e-05,8.976943958316497e-05,4.488441677940199e-05,0.0,1.3398598617087951e-06,2.6797378140558344e-06,-0.9999973202621859,-4.0848278081932856e-19,-1.3616092482015397e-17,1.0,2.6797378140558344e-08,1.3398779523470393e-09,1.339859861708795e-09,4.488502280376298e-08,4.488441677940199e-08,8.976943958316497e-07,-2.8137256093566543e-08,0.499999511191662,9.425794186279646e-07,0.9999990574205814,0.499999511191662,-6.059351327700966e-13,6.060107448780984e-13,-0.49999952536028963,-0.49999952536028963,0.9999990574205815,-1.808797331383907e-14,1.8090229761645452e-14,1.4168627583608218e-08,1.4168627583608218e-08,-2.8137256094927672e-08
0.14677992676220694,0.0,8.97694401373883e-05,8.97694401373883e-05,8.97694401373883e-05,4.4884417056135265e-05,0.0,1.339859869691051e-06,2.679737830043046e-06,-0.9999973202621699,-4.762559567912336e-19,-1.5875198312577975e-17,1.0,2.679737830043046e-08,1.3398779603519949e-09,1.3398598696910511e-09,4.488502308125304e-08,4.4884417056135266e-08,8.97694401373883e-07,-2.8137256260099997e-08,0.49999951119165925,9.425794244011243e-07,0.9999990574205756,0.49999951119165925,-6.05934383480881e-13,6.06009242564262e-13,-0.49999952536028697,-0.49999952536028697,0.9999990574205762,-1.8087950830845728e-14,1.8090184687912556e-14,1.4168627666895277e-08,1.4168627666895277e-08,-2.8137256261479198e-08
0.15848931924611134,0.0,8.976944074845505e-05,8.976944074845505e-05,8.976944074845505e-05,4.488441736122759e-05,0.0,1.3398598789481808e-06,2.6797378485837705e-06,-0.9999973202621514,-5.552736786705705e-19,-1.8509122334220146e-17,1.0,2.6797378485837707e-08,1.3398779696355897e-09,1.3398598789481808e-09,4.488502338722746e-08,4.488441736122759e-08,8.976944074845505e-07,-2.8137256454389026e-08,0.49999951119165564,9.425794308404178e-07,0.9999990574205692,0.49999951119165564,-6.059335096368015e-13,6.060074907579012e-13,-0.49999952536028347,-0.49999952536028347,0.9999990574205693,-1.8087924616931795e-14,1.8090132135129967e-14,1.4168627763508384e-08,1.4168627763508384e-08,-2.8137256454679075e-08
0.17113283041617808,0.0,8.976944145899779e-05,8.976944145899779e-05,8.976944145899779e-05,4.4884417715984726e-05,0.0,1.3398598898684489e-06,2.679737870455164e-06,-0.9999973202621295,-6.474015785581089e-19,-2.1580052282666146e-17,1.0,2.6797378704551642e-08,1.3398779805867153e-09,1.3398598898684488e-09,4.4885023743013065e-08,4.4884417715984725e-08,8.976944145899779e-07,-2.8137256683372525e-08,0.4999995111916517,9.425794383899344e-07,0.9999990574205616,0.4999995111916517,-6.059324907965205e-13,6.060054482887508e-13,-0.49999952536027964,-0.49999952536027964,0.9999990574205615,-1.8087894055469867e-14,1.8090070864801978e-14,1.41686278784441e-08,1.41686278784441e-08,-2.8137256684519804e-08
0.1847849797422291,0.0,8.976944232585993e-05,8.976944232585993e-05,8.976944232585993e-05,4.4884418148816116e-05,0.0,1.339859902562514e-06,2.6797378958792713e-06,-0.9999973202621041,-7.548148237874401e-19,-2.5160493734573642e-17,1.0,2.6797378958792714e-08,1.3398779933167573e-09,1.339859902562514e-09,4.488502417704381e-08,4.488441814881612e-08,8.976944232585993e-07,-2.813725695051994e-08,0.4999995111916473,9.425794473827409e-07,0.9999990574205526,0.4999995111916473,-6.059313031753661e-13,6.060030672039906e-13,-0.49999952536027537,-0.49999952536027537,0.9999990574205531,-1.808785842290784e-14,1.8089999428330704e-14,1.4168628011703085e-08,1.4168628011703085e-08,-2.8137256951001975e-08
0.19952623149688797,0.0,8.97694433064089e-05,8.97694433064089e-05,8.97694433064089e-05,4.488441863839153e-05,0.0,1.3398599173075077e-06,2.6797379254112038e-06,-0.9999973202620746,-8.80049473277772e-19,-2.933498198593363e-17,1.0,2.6797379254112038e-08,1.339878008103696e-09,1.3398599173075077e-09,4.4885024668017373e-08,4.488441863839153e-08,8.976944330640891e-07,-2.813725725930072e-08,0.49999951119164193,9.42579457707815e-07,0.9999990574205423,0.49999951119164193,-6.059299183073282e-13,6.060002908595207e-13,-0.49999952536027015,-0.49999952536027015,0.9999990574205426,-1.8087816877645434e-14,1.808991613877479e-14,1.4168628166616762e-08,1.4168628166616762e-08,-2.8137257260787596e-08
0.2154434690031884,0.0,8.976944445748813e-05,8.976944445748813e-05,8.976944445748813e-05,4.4884419213116056e-05,0.0,1.3398599345470232e-06,2.67973795993914e-06,-0.99999732026204,-1.0260623546452504e-18,-3.420207795574998e-17,1.0,2.67973795993914e-08,1.3398780253921166e-09,1.3398599345470233e-09,4.488502524437208e-08,4.4884419213116055e-08,8.976944445748813e-07,-2.813725762359265e-08,0.49999951119163566,9.42579469809246e-07,0.9999990574205302,0.49999951119163566,-6.059283037226794e-13,6.059970539324678e-13,-0.4999995253602641,-0.4999995253602641,0.9999990574205304,-1.8087768440075238e-14,1.8089819030931706e-14,1.4168628348182028e-08,1.4168628348182028e-08,-2.8137257623869456e-08
0.23263050671536262,0.0,8.976944579330848e-05,8.976944579330848e-05,8.976944579330848e-05,4.488441988007594e-05,0.0,1.3398599546135507e-06,2.6797380001292133e-06,-0.9999973202619998,-1.1963008757893458e-18,-3.9876695238882845e-17,1.0,2.6797380001292133e-08,1.3398780455156625e-09,1.3398599546135508e-09,4.488502591323254e-08,4.488441988007594e-08,8.976944579330848e-07,-2.813725804339573e-08,0.4999995111916283,9.425794839090784e-07,0.9999990574205161,0.4999995111916283,-6.059264212130693e-13,6.059932799104794e-13,-0.49999952536025694,-0.49999952536025694,0.9999990574205162,-1.8087711965565427e-14,1.808970581104977e-14,1.416862855973058e-08,1.416862855973058e-08,-2.8137258046909828e-08
0.251188643150958,0.0,8.976944737071335e-05,8.976944737071335e-05,8.976944737071335e-05,4.4884420667670334e-05,0.0,1.339859978006017e-06,2.679738046980625e-06,-0.999997320261953,-1.3947844192267889e-18,-4.6492813250470925e-17,1.0,2.679738046980625e-08,1.339878068974608e-09,1.3398599780060171e-09,4.488502670304302e-08,4.4884420667670334e-08,8.976944737071336e-07,-2.81372585360572e-08,0.49999951119162017,9.425795003403792e-07,0.9999990574204997,0.49999951119162017,-6.059242265026842e-13,6.059888798585904e-13,-0.49999952536024905,-0.49999952536024905,0.9999990574205004,-1.8087646121075406e-14,1.8089573806313184e-14,1.4168628806259632e-08,1.4168628806259632e-08,-2.813725853990178e-08
0.27122725793320285,0.0,8.976944918970275e-05,8.976944918970275e-05,8.976944918970275e-05,4.4884421575873236e-05,0.0,1.33986000533426e-06,2.67973810171462e-06,-0.9999973202618982,-1.6261992409176879e-18,-5.420664052008609e-17,1.0,2.67973810171462e-08,1.3398780963803602e-09,1.3398600053342598e-09,4.488502761382952e-08,4.4884421575873235e-08,8.976944918970276e-07,-2.8137259111985394e-08,0.49999951119161007,9.425795194362152e-07,0.9999990574204806,0.49999951119161007,-6.059216675223653e-13,6.059837496388345e-13,-0.4999995253602392,-0.4999995253602392,0.9999990574204807,-1.8087569352773748e-14,1.8089419900827366e-14,1.416862909276659e-08,1.416862909276659e-08,-2.8137259112838572e-08
0.2928644564625237,0.0,8.976945129290925e-05,8.976945129290925e-05,8.976945129290925e-05,4.488442262597041e-05,0.0,1.3398600372079873e-06,2.679738165552444e-06,-0.9999973202618344,-1.8960091141735436e-18,-6.320030282194331e-17,1.0,2.679738165552444e-08,1.3398781283444568e-09,1.3398600372079874e-09,4.4885028666938844e-08,4.488442262597041e-08,8.976945129290925e-07,-2.8137259781588656e-08,0.49999951119159847,9.425795416406757e-07,0.9999990574204584,0.49999951119159847,-6.059186838516991e-13,6.059777681230641e-13,-0.49999952536022796,-0.49999952536022796,0.9999990574204582,-1.8087479847658326e-14,1.808924046035809e-14,1.4168629427579765e-08,1.4168629427579765e-08,-2.8137259782375004e-08
0.31622776601683794,0.0,8.976945377980883e-05,8.976945377980883e-05,8.976945377980883e-05,4.488442386766413e-05,0.0,1.3398600742922665e-06,2.6797382398263643e-06,-0.9999973202617601,-2.2105843309830157e-18,-7.368614321902553e-17,1.0,2.6797382398263643e-08,1.3398781655340978e-09,1.3398600742922665e-09,4.4885029912144695e-08,4.4884423867664135e-08,8.976945377980883e-07,-2.813726056221422e-08,0.49999951119158503,9.425795677309168e-07,0.9999990574204323,0.49999951119158503,-6.059152053815998e-13,6.059707944222166e-13,-0.4999995253602149,-0.4999995253602149,0.999999057420432,-1.8087375491305533e-14,1.8089031247080916e-14,1.4168629817362412e-08,1.4168629817362412e-08,-2.813726056183545e-08
0.34145488738336016,0.0,8.976945666461233e-05,8.976945666461233e-05,8.976945666461233e-05,4.4884425308018505e-05,0.0,1.339860117529543e-06,2.6797383264237603e-06,-0.9999973202616735,-2.5773521065153973e-18,-8.591173554645533e-17,1.0,2.6797383264237604e-08,1.3398782088942173e-09,1.3398601175295429e-09,4.488503135659383e-08,4.488442530801851e-08,8.976945666461234e-07,-2.8137261467739875e-08,0.4999995111915694,9.425795980400054e-07,0.999999057420402,0.4999995111915694,-6.059111496839351e-13,6.059626635846736e-13,-0.49999952536019965,-0.49999952536019965,0.9999990574204016,-1.80872538207334e-14,1.8088787322310592e-14,1.4168630272108759e-08,1.4168630272108759e-08,-2.8137261471205914e-08
0.36869450645195756,0.0,8.976946004679576e-05,8.976946004679576e-05,8.976946004679576e-05,4.488442699672309e-05,0.0,1.3398601680285889e-06,2.679738427565078e-06,-0.9999973202615724,-3.0049719378972272e-18,-1.0016572970395718e-16,1.0,2.6797384275650777e-08,1.339878259536489e-09,1.3398601680285888e-09,4.488503305007267e-08,4.488442699672309e-08,8.976946004679575e-07,-2.8137262525921195e-08,0.49999951119155145,9.425796333450975e-07,0.9999990574203667,0.49999951119155145,-6.059064212141792e-13,6.059531838506639e-13,-0.4999995253601823,-0.4999995253601823,0.999999057420367,-1.8087111964450275e-14,1.8088502928097338e-14,1.4168630801813417e-08,1.4168630801813417e-08,-2.813726253047271e-08
0.39810717055349726,0.0,8.976946398320251e-05,8.976946398320251e-05,8.976946398320251e-05,4.48844289621433e-05,0.0,1.3398602268424264e-06,2.6797385453597407e-06,-0.9999973202614546,-3.503540057535303e-18,-1.1678466676651883e-16,1.0,2.6797385453597408e-08,1.3398783185173144e-09,1.3398602268424264e-09,4.4885035021059214e-08,4.48844289621433e-08,8.976946398320251e-07,-2.8137263767983204e-08,0.49999951119153024,9.42579674645394e-07,0.9999990574203254,0.49999951119153024,-6.059009081764205e-13,6.059421312454815e-13,-0.4999995253601617,-0.4999995253601617,0.9999990574203257,-1.8086946571306556e-14,1.8088171347928067e-14,1.416863142146742e-08,1.416863142146742e-08,-2.8137263769614556e-08
0.4298662347082277,0.0,8.976946855909773e-05,8.976946855909773e-05,8.976946855909773e-05,4.4884431246846026e-05,0.0,1.3398602954678844e-06,2.679738682805351e-06,-0.9999973202613172,-4.0848278081903616e-18,-1.3616092482005652e-16,1.0,2.6797386828053512e-08,1.3398783873374667e-09,1.3398602954678845e-09,4.4885037312251704e-08,4.488443124684603e-08,8.976946855909773e-07,-2.813726520780369e-08,0.49999951119150554,9.42579722718051e-07,0.9999990574202773,0.49999951119150554,-6.058944803543821e-13,6.059292447619954e-13,-0.4999995253601377,-0.4999995253601377,0.9999990574202777,-1.8086753737781473e-14,1.8087784754556692e-14,1.4168632142731645e-08,1.4168632142731645e-08,-2.8137265211949277e-08
0.4641588833612779,0.0,8.97694739023791e-05,8.97694739023791e-05,8.97694739023791e-05,4.488443391470342e-05,0.0,1.3398603754014667e-06,2.6797388428995113e-06,-0.9999973202611571,-4.7625595679083616e-18,-1.5875198312564731e-16,1.0,2.6797388428995112e-08,1.3398784674980445e-09,1.3398603754014668e-09,4.4885039987675685e-08,4.4884433914703424e-08,8.97694739023791e-07,-2.813726689048546e-08,0.4999995111914766,9.425797787843138e-07,0.9999990574202212,0.4999995111914766,-6.058869861193086e-13,6.059142202805348e-13,-0.49999952536010966,-0.49999952536010966,0.9999990574202218,-1.8086528909346874e-14,1.8087334018726793e-14,1.4168632983928886e-08,1.4168632983928886e-08,-2.8137266894117882e-08
0.5011872336272724,0.0,8.976948011252261e-05,8.976948011252261e-05,8.976948011252261e-05,4.488443701536426e-05,0.0,1.3398604685278722e-06,2.6797390294169795e-06,-0.9999973202609705,-5.5527367867003075e-18,-1.8509122334202152e-16,1.0,2.6797390294169795e-08,1.3398785608891072e-09,1.3398604685278722e-09,4.488504309715836e-08,4.488443701536426e-08,8.976948011252262e-07,-2.813726884725354e-08,0.4999995111914428,9.425798440654276e-07,0.9999990574201559,0.4999995111914428,-6.058782483499714e-13,6.058967028884731e-13,-0.49999952536007686,-0.49999952536007686,0.999999057420156,-1.8086266777701507e-14,1.8086808498395784e-14,1.416863396171729e-08,1.416863396171729e-08,-2.8137268849431343e-08
0.5411695265464638,0.0,8.976948737426937e-05,8.976948737426937e-05,8.976948737426937e-05,4.48844406410948e-05,0.0,1.339860577286466e-06,2.679739247242737e-06,-0.9999973202607527,-6.47401578557375e-18,-2.1580052282641677e-16,1.0,2.679739247242737e-08,1.3398786699562709e-09,1.3398605772864661e-09,4.4885046733174576e-08,4.48844406410948e-08,8.976948737426938e-07,-2.8137271133619083e-08,0.4999995111914036,9.425799202267271e-07,0.9999990574200798,0.4999995111914036,-6.058680610023104e-13,6.058762792522594e-13,-0.4999995253600388,-0.4999995253600388,0.9999990574200801,-1.8085961157087052e-14,1.8086195789119963e-14,1.416863510441314e-08,1.416863510441314e-08,-2.8137271134515998e-08
0.5843414133735177,0.0,8.976949584393878e-05,8.976949584393878e-05,8.976949584393878e-05,4.488444486993339e-05,0.0,1.3398607040050755e-06,2.6797395010397203e-06,-0.9999973202604989,-7.548148237864417e-18,-2.5160493734540356e-16,1.0,2.6797395010397202e-08,1.339878797034645e-09,1.3398607040050755e-09,4.4885050974005394e-08,4.488444486993339e-08,8.976949584393879e-07,-2.8137273798154342e-08,0.49999951119135794,9.425800091555914e-07,0.9999990574199908,0.49999951119135794,-6.058561834478489e-13,6.058524670615628e-13,-0.4999995253599944,-0.4999995253599944,0.9999990574199913,-1.808560482846924e-14,1.8085481421409273e-14,1.4168636437002978e-08,1.4168636437002978e-08,-2.8137273799337693e-08
0.6309573444801934,0.0,8.97695056920611e-05,8.97695056920611e-05,8.97695056920611e-05,4.4884449787003696e-05,0.0,1.3398608517325662e-06,2.6797397969141564e-06,-0.999997320260203,-8.80049473276415e-18,-2.9334981985888403e-16,1.0,2.6797397969141564e-08,1.3398789451815902e-09,1.3398608517325662e-09,4.4885055905057406e-08,4.48844497870037e-08,8.976950569206111e-07,-2.813727690677881e-08,0.4999995111913046,9.42580112517355e-07,0.9999990574198875,0.4999995111913046,-6.058423350552389e-13,6.058247039046695e-13,-0.49999952535994263,-0.49999952535994263,0.9999990574198878,-1.8085189379592115e-14,1.808464852959754e-14,1.4168637991135769e-08,1.4168637991135769e-08,-2.8137276907185893e-08
0.6812920690579614,0.0,8.976951720285342e-05,8.976951720285342e-05,8.976951720285342e-05,4.488445553424899e-05,0.0,1.3398610240722101e-06,2.6797401420824947e-06,-0.9999973202598579,-1.0260623546434067e-17,-3.4202077955688514e-16,1.0,2.6797401420824947e-08,1.3398791180102846e-09,1.3398610240722101e-09,4.488506166860443e-08,4.4884455534248994e-08,8.976951720285343e-07,-2.8137280525411982e-08,0.4999995111912426,9.4258023330962e-07,0.9999990574197667,0.4999995111912426,-6.058261892087519e-13,6.057923346341408e-13,-0.4999995253598824,-0.4999995253598824,0.9999990574197672,-1.8084705003140792e-14,1.8083677450417278e-14,1.4168639801792408e-08,1.4168639801792408e-08,-2.8137280528012542e-08
0.7356422544596414,0.0,8.976953060368942e-05,8.976953060368942e-05,8.976953060368942e-05,4.488446222516387e-05,0.0,1.339861224904017e-06,2.6797405443162966e-06,-0.9999973202594556,-1.1963008757868392e-17,-3.9876695238799257e-16,1.0,2.6797405443162964e-08,1.3398793194122797e-09,1.339861224904017e-09,4.488506837852555e-08,4.488446222516387e-08,8.976953060368942e-07,-2.813728475119837e-08,0.49999951119116975,9.425803740858996e-07,0.9999990574196259,0.49999951119116975,-6.058073644004175e-13,6.057545947020624e-13,-0.49999952535981174,-0.49999952535981174,0.9999990574196259,-1.8084140260290805e-14,1.8082545253846345e-14,1.4168641913947267e-08,1.4168641913947267e-08,-2.813728475175489e-08
0.7943282347242816,0.0,8.97695462356296e-05,8.97695462356296e-05,8.97695462356296e-05,4.488447003005412e-05,0.0,1.3398614589952133e-06,2.67974101316348e-06,-0.9999973202589868,-1.3947844192233815e-17,-4.649281325035736e-16,1.0,2.67974101316348e-08,1.3398795541682665e-09,1.3398614589952134e-09,4.4885076205575484e-08,4.488447003005412e-08,8.976954623562961e-07,-2.8137289674343594e-08,0.49999951119108543,9.425805380658403e-07,0.9999990574194619,0.49999951119108543,-6.057854163373399e-13,6.057105932238186e-13,-0.4999995253597298,-0.4999995253597298,0.999999057419462,-1.8083481817638808e-14,1.8081225208728986e-14,1.4168644375907107e-08,1.4168644375907107e-08,-2.813728967501307e-08
