frequency,V(+v),V(n003),V(n002),V(n004),V(n001),V(-v),V(n005),V(y),V(x),I(C2),I(C1),I(I1),I(R4),I(R6),I(R5),I(R3),I(R2),I(R1),I(V2),I(V5),I(V4),I(V3),I(V1),Ix(u1:1),Ix(u1:2),Ix(u1:3),Ix(u1:4),Ix(u1:5),Ix(u2:1),Ix(u2:2),Ix(u2:3),Ix(u2:4),Ix(u2:5)
0.1,0.0,9.010925411271762e-05,9.010925411271762e-05,9.010925411271762e-05,4.505432289942963e-05,0.0,1.344982333448863e-06,2.689982826562327e-06,0.9999973202622577,2.535266200943944e-18,8.492654454459541e-17,1.0,2.6899828265623266e-08,1.3450004931134637e-09,1.344982333448863e-09,4.505493121328798e-08,4.5054322899429635e-08,9.010925411271762e-07,2.824482875641182e-08,0.4999995111916717,9.46147472389208e-07,0.9999990574206,0.4999995111916717,6.082334048553908e-13,6.083138609793805e-13,0.499999525360299,0.499999525360299,0.9999990574206004,1.8157262866207823e-14,1.8159664679361814e-14,1.422203572866264e-08,1.422203572866264e-08,2.8244828759791717e-08
0.10797751623277096,0.0,9.016551089229256e-05,9.016551089229256e-05,9.016551089229256e-05,4.508245109932663e-05,0.0,1.3458303474103872e-06,2.6916788659350785e-06,0.9999973202622537,2.739243483727854e-18,9.17588243138743e-17,1.0,2.6916788659350786e-08,1.3458485185246912e-09,1.3458303474103872e-09,4.508305979296594e-08,4.508245109932663e-08,9.016551089229256e-07,2.826263717602455e-08,0.49999951119167046,9.467381686683479e-07,0.9999990574205977,0.49999951119167046,6.08613135691907e-13,6.086936423741029e-13,0.4999995253602978,0.4999995253602978,0.9999990574205978,1.8168711058813716e-14,1.8171114396108528e-14,1.4230877605673737e-08,1.4230877605673737e-08,2.826263717913573e-08
0.11659144011798317,0.0,9.023105719074431e-05,9.023105719074431e-05,9.023105719074431e-05,4.511522402730596e-05,0.0,1.346818385045002e-06,2.693654954544582e-06,0.9999973202622489,2.9599385138327488e-18,9.915092535223563e-17,1.0,2.6936549545445818e-08,1.3468365694995798e-09,1.3468183850450022e-09,4.511583316343835e-08,4.511522402730597e-08,9.023105719074431e-07,2.8283386113434983e-08,0.4999995111916688,9.474264051447273e-07,0.9999990574205948,0.4999995111916688,6.090555703805653e-13,6.09136135970272e-13,0.4999995253602962,0.4999995253602962,0.9999990574205947,1.8182049571695293e-14,1.8184454684819707e-14,1.4241179546878594e-08,1.4241179546878594e-08,2.8283386115588793e-08
0.12589254117941673,0.0,9.030741851173287e-05,9.030741851173287e-05,9.030741851173287e-05,4.515340443004842e-05,0.0,1.3479694377540557e-06,2.6959570755039574e-06,0.9999973202622435,3.1987995955008938e-18,1.0715131054230947e-16,1.0,2.6959570755039574e-08,1.3479876377499017e-09,1.3479694377540556e-09,4.515401408168445e-08,4.515340443004842e-08,9.030741851173286e-07,2.8307558391514728e-08,0.49999951119166725,9.482281992044238e-07,0.9999990574205915,0.49999951119166725,6.095710060054308e-13,6.096516402233349e-13,0.4999995253602947,0.4999995253602947,0.9999990574205917,1.8197588788886672e-14,1.819999597086429e-14,1.425318132632616e-08,1.425318132632616e-08,2.8307558395473177e-08
0.13593563908785256,0.0,9.039636781972624e-05,9.039636781972624e-05,9.039636781972624e-05,4.519787878380347e-05,0.0,1.3493102271320784e-06,2.6986386723630544e-06,0.9999973202622368,3.4574199389330482e-18,1.1581328308519874e-16,1.0,2.6986386723630545e-08,1.349328445230976e-09,1.3493102271320781e-09,4.5198489035922766e-08,4.519787878380347e-08,9.039636781972623e-07,2.833571516992367e-08,0.4999995111916653,9.491621672393103e-07,0.9999990574205876,0.4999995111916653,6.101714100004083e-13,6.102521241611388e-13,0.49999952536029274,0.49999952536029274,0.9999990574205877,1.8215689452049737e-14,1.821809904394826e-14,1.426716162755884e-08,1.426716162755884e-08,2.8335715171275268e-08
0.14677992676220694,0.0,9.049996473661269e-05,9.049996473661269e-05,9.049996473661269e-05,4.524967689256319e-05,0.0,1.3508717923252234e-06,2.701761823833265e-06,0.9999973202622292,3.7375566734498044e-18,1.2519562019289724e-16,1.0,2.701761823833265e-08,1.3508900315080415e-09,1.3508717923252233e-09,4.525028784404949e-08,4.524967689256319e-08,9.049996473661268e-07,2.836850826963617e-08,0.4999995111916631,9.502499351723476e-07,0.9999990574205828,0.4999995111916631,6.108706847247062e-13,6.109514919946819e-13,0.4999995253602906,0.4999995253602906,0.9999990574205834,1.82367705898166e-14,1.8239182988514695e-14,1.4283444182573787e-08,1.4283444182573787e-08,2.8368508271004128e-08
0.15848931924611134,0.0,9.06206003036408e-05,9.06206003036408e-05,9.06206003036408e-05,4.530999426888108e-05,0.0,1.3526901674804835e-06,2.7053985986950987e-06,0.9999973202622204,4.041153247962117e-18,1.3536331889355253e-16,1.0,2.705398598695099e-08,1.3527084312146153e-09,1.3526901674804833e-09,4.531060603475972e-08,4.530999426888108e-08,9.06206003036408e-07,2.8406694417641624e-08,0.49999951119166014,9.515166090584374e-07,0.9999990574205776,0.49999951119166014,6.116849696040292e-13,6.117658852996214e-13,0.4999995253602877,0.4999995253602877,0.9999990574205777,1.8261318663358145e-14,1.826373433053243e-14,1.4302404842196354e-08,1.4302404842196354e-08,2.8406694417928924e-08
0.17113283041617808,0.0,9.076104859155052e-05,9.076104859155052e-05,9.076104859155052e-05,4.5380217938763433e-05,0.0,1.3548071558526047e-06,2.7096326040224667e-06,0.9999973202622101,4.370365930726449e-18,1.4638847864934803e-16,1.0,2.709632604022467e-08,1.354825448169862e-09,1.3548071558526047e-09,4.538083065278709e-08,4.538021793876343e-08,9.076104859155052e-07,2.845115148728844e-08,0.4999995111916569,9.529913166459579e-07,0.9999990574205715,0.4999995111916569,6.126329894967765e-13,6.127140314289672e-13,0.4999995253602846,0.4999995253602846,0.9999990574205714,1.828989801683229e-14,1.8292317489339106e-14,1.4324479661795132e-08,1.4324479661795132e-08,2.845115148842306e-08
0.1847849797422291,0.0,9.09245253875695e-05,9.09245253875695e-05,9.09245253875695e-05,4.546195578496944e-05,0.0,1.357271213894487e-06,2.7145607533754178e-06,0.999997320262198,4.72759529521823e-18,1.5835134944308102e-16,1.0,2.714560753375418e-08,1.3572895394809307e-09,1.3572712138944871e-09,4.546256960260006e-08,4.546195578496944e-08,9.092452538756949e-07,2.85028970724111e-08,0.4999995111916534,9.547078234509058e-07,0.9999990574205642,0.4999995111916534,6.1373645082879e-13,6.138176397007308e-13,0.49999952536028114,0.49999952536028114,0.9999990574205646,1.83231628126103e-14,1.832558671446123e-14,1.4350174135111882e-08,1.4350174135111882e-08,2.850289707288695e-08
0.19952623149688797,0.0,9.11147549686323e-05,9.11147549686323e-05,9.11147549686323e-05,4.555706993339536e-05,0.0,1.3601384582743473e-06,2.7202952808480602e-06,0.999997320262184,5.1155237741415925e-18,1.7134158137120185e-16,1.0,2.7202952808480603e-08,1.3601568225737128e-09,1.3601384582743472e-09,4.5557685035236933e-08,4.555706993339536e-08,9.11147549686323e-07,2.8563109629049687e-08,0.49999951119164904,9.56705234726529e-07,0.9999990574205557,0.49999951119164904,6.150204923097743e-13,6.151018521745673e-13,0.49999952536027686,0.49999952536027686,0.9999990574205561,1.8361870626015504e-14,1.836429968216918e-14,1.4380073722187347e-08,1.4380073722187347e-08,2.85631096305144e-08
0.2154434690031884,0.0,9.133604613032144e-05,9.133604613032144e-05,9.133604613032144e-05,4.5667714767288456e-05,0.0,1.3634738067737773e-06,2.7269660228800843e-06,0.9999973202621677,5.537160592502139e-18,1.8545972009348094e-16,1.0,2.7269660228800847e-08,1.363492216106307e-09,1.3634738067737775e-09,4.5668331363032986e-08,4.566771476728845e-08,9.133604613032143e-07,2.86331524447452e-08,0.49999951119164393,9.59028792690027e-07,0.9999990574205458,0.49999951119164393,6.165141981254679e-13,6.165957569125611e-13,0.4999995253602719,0.4999995253602719,0.9999990574205461,1.840689784745552e-14,1.8409332899668673e-14,1.4414855775952775e-08,1.4414855775952775e-08,2.8633152445017215e-08
0.23263050671536262,0.0,9.159337761950858e-05,9.159337761950858e-05,9.159337761950858e-05,4.579637964327918e-05,0.0,1.3673522650375418e-06,2.7347229917737294e-06,0.9999973202621487,5.995895675914911e-18,2.008190001192971e-16,1.0,2.7347229917737292e-08,1.3673707267361874e-09,1.367352265037542e-09,4.5796997976229406e-08,4.579637964327918e-08,9.159337761950859e-07,2.8714600642302266e-08,0.49999951119163794,9.61730774271909e-07,0.9999990574205343,0.49999951119163794,6.182511746044168e-13,6.183329647231675e-13,0.49999952536026604,0.49999952536026604,0.9999990574205344,1.8459257053554703e-14,1.8461699078557607e-14,1.4455303001277701e-08,1.4455303001277701e-08,2.871460064574571e-08
0.251188643150958,0.0,9.189249425332107e-05,9.189249425332107e-05,9.189249425332107e-05,4.594593695053998e-05,0.0,1.3718603706607016e-06,2.7437392638875295e-06,0.9999973202621265,6.4955644681066725e-18,2.1754750111052709e-16,1.0,2.7437392638875294e-08,1.371878893226828e-09,1.3718603706607015e-09,4.5946557302781094e-08,4.594593695053998e-08,9.189249425332108e-07,2.8809271530804248e-08,0.49999951119163144,9.648714998132257e-07,0.9999990574205209,0.49999951119163144,6.202701990170281e-13,6.203522580471723e-13,0.49999952536025966,0.49999952536025966,0.9999990574205216,1.8520116502342577e-14,1.8522566632625714e-14,1.4502318568939693e-08,1.4502318568939693e-08,2.8809271534559148e-08
0.27122725793320285,0.0,9.224001390462253e-05,9.224001390462253e-05,9.224001390462253e-05,4.611969560316458e-05,0.0,1.3770978023118373e-06,2.7542141979044863e-06,0.9999973202621006,7.040525978808954e-18,2.3579074375380714e-16,1.0,2.7542141979044863e-08,1.377116395592649e-09,1.3770978023118371e-09,4.612031830145794e-08,4.6119695603164576e-08,9.224001390462253e-07,2.8919258374720244e-08,0.4999995111916232,9.685204573277953e-07,0.9999990574205053,0.4999995111916232,6.226159417231867e-13,6.226983132021615e-13,0.4999995253602516,0.4999995253602516,0.9999990574205054,1.8590821856432272e-14,1.859328140394632e-14,1.4556942966244171e-08,1.4556942966244171e-08,2.891925837555035e-08
0.2928644564625237,0.0,9.26435460998333e-05,9.26435460998333e-05,9.26435460998333e-05,4.632146033867775e-05,0.0,1.3831791594251244e-06,2.766376994240247e-06,0.9999973202620703,7.635756845567284e-18,2.5571481862460705e-16,1.0,2.766376994240247e-08,1.3831978348151228e-09,1.3831791594251245e-09,4.6322085761155546e-08,4.6321460338677756e-08,9.26435460998333e-07,2.9046967776845396e-08,0.4999995111916138,9.727575468639873e-07,0.9999990574204872,0.4999995111916138,6.253397667027456e-13,6.254225010205407e-13,0.4999995253602424,0.4999995253602424,0.9999990574204871,1.8672920208881683e-14,1.867539069196462e-14,1.4620372653542242e-08,1.4620372653542242e-08,2.9046967777607114e-08
0.31622776601683794,0.0,9.311182200244934e-05,9.311182200244934e-05,9.311182200244934e-05,4.6555596709356105e-05,0.0,1.3902359131037454e-06,2.780490596876272e-06,0.9999973202620352,8.28696472072477e-18,2.775101576979142e-16,1.0,2.780490596876272e-08,1.3902546837725268e-09,1.3902359131037456e-09,4.655622529309323e-08,4.6555596709356107e-08,9.311182200244933e-07,2.919516065313959e-08,0.4999995111916029,9.77674445408569e-07,0.999999057420466,0.4999995111916029,6.285006089390935e-13,6.28583764351184e-13,0.4999995253602318,0.4999995253602318,0.9999990574204658,1.8768186420411697e-14,1.877066959426035e-14,1.4693980523619649e-08,1.4693980523619649e-08,2.9195160652774546e-08
0.34145488738336016,0.0,9.365483533405023e-05,9.365483533405023e-05,9.365483533405023e-05,4.682710154225638e-05,0.0,1.3984185220394744e-06,2.7968559252275706e-06,0.9999973202619943,9.000724892519899e-18,3.013960783937947e-16,1.0,2.7968559252275706e-08,1.3984374031880961e-09,1.3984185220394742e-09,4.682773379179385e-08,4.682710154225638e-08,9.365483533405023e-07,2.936699665276707e-08,0.4999995111915902,9.83376087250385e-07,0.9999990574204413,0.4999995111915902,6.321659256304477e-13,6.322495693990619e-13,0.4999995253602193,0.4999995253602193,0.9999990574204409,1.8878651684347867e-14,1.8881149575343274e-14,1.4779338123650237e-08,1.4779338123650237e-08,2.936699665608797e-08
0.36869450645195756,0.0,9.428399373579583e-05,9.428399373579583e-05,9.428399373579583e-05,4.714167861945288e-05,0.0,1.407898698162943e-06,2.8158164054738238e-06,0.9999973202619463,9.784644714218567e-18,3.276262540231682e-16,1.0,2.8158164054738236e-08,1.4079177073108809e-09,1.4078986981629428e-09,4.714231511634296e-08,4.7141678619452886e-08,9.428399373579584e-07,2.9566081756090594e-08,0.49999951119157576,9.899822524050186e-07,0.9999990574204125,0.49999951119157576,6.364127178741787e-13,6.364969275478427e-13,0.4999995253602052,0.4999995253602052,0.9999990574204128,1.9006634112932554e-14,1.9009149057105014e-14,1.4878239474698154e-08,1.4878239474698154e-08,2.956608176042215e-08
0.39810717055349726,0.0,9.501227832262663e-05,9.501227832262663e-05,9.501227832262663e-05,4.750581845459908e-05,0.0,1.418871796763286e-06,2.837762750830947e-06,0.9999973202618906,1.0647561151556725e-17,3.56495286046258e-16,1.0,2.8377627508309472e-08,1.418890954067661e-09,1.4188717967632861e-09,4.7506459868027545e-08,4.750581845459908e-08,9.501227832262662e-07,2.9796518461784122e-08,0.49999951119155855,9.976292430084043e-07,0.9999990574203788,0.49999951119155855,6.413286076517759e-13,6.414134724912295e-13,0.4999995253601884,0.4999995253601884,0.9999990574203791,1.9154771003981673e-14,1.9157305689861313e-14,1.4992726246678433e-08,1.4992726246678433e-08,2.979651846332463e-08
0.4298662347082277,0.0,9.58544094166697e-05,9.58544094166697e-05,9.58544094166697e-05,4.792688115907121e-05,0.0,1.431559293784234e-06,2.8631379161767216e-06,0.9999973202618254,1.1599777552771234e-17,3.883465830980248e-16,1.0,2.8631379161767214e-08,1.4315786223924874e-09,1.4315592937842342e-09,4.792752825759849e-08,4.7926881159071214e-08,9.58544094166697e-07,3.006295778088159e-08,0.49999951119153857,1.00647162237839e-06,0.9999990574203396,0.49999951119153857,6.470129565235077e-13,6.470985790805067e-13,0.49999952536016884,0.49999952536016884,0.99999905742034,1.932605228443352e-14,1.932860980047181e-14,1.5125113878415784e-08,1.5125113878415784e-08,3.006295778476163e-08
0.4641588833612779,0.0,9.682701478506765e-05,9.682701478506765e-05,9.682701478506765e-05,4.8413180560314786e-05,0.0,1.446211296624693e-06,2.892442119685856e-06,0.9999973202617497,1.2653346560410697e-17,4.235817775390911e-16,1.0,2.892442119685856e-08,1.4462308230611632e-09,1.446211296624693e-09,4.8413834224752866e-08,4.8413180560314785e-08,9.682701478506764e-07,3.0370652018766157e-08,0.49999951119151514,1.016683982012014e-06,0.9999990574202938,0.49999951119151514,6.535780012282391e-13,6.536644990807394e-13,0.49999952536014597,0.49999952536014597,0.9999990574202944,1.952385440622084e-14,1.9526438292880878e-14,1.5278018136169674e-08,1.5278018136169674e-08,3.037065202213146e-08
0.5011872336272724,0.0,9.794879596344211e-05,9.794879596344211e-05,9.794879596344211e-05,4.897406736301502e-05,0.0,1.4631090236057275e-06,2.926237801797431e-06,0.9999973202616614,1.382240696776121e-17,4.626719397095076e-16,1.0,2.926237801797431e-08,1.4631287781917036e-09,1.4631090236057273e-09,4.897472860042708e-08,4.897406736301503e-08,9.79487959634421e-07,3.072550679410315e-08,0.4999995111914877,1.028462688260633e-06,0.9999990574202405,0.4999995111914877,6.611499763619098e-13,6.6123748400553e-13,0.49999952536011916,0.49999952536011916,0.9999990574202406,1.975197381915536e-14,1.975458812566305e-14,1.5454381386301608e-08,1.5454381386301608e-08,3.0725506796097496e-08
0.5411695265464638,0.0,9.924068761958821e-05,9.924068761958821e-05,9.924068761958821e-05,4.962000883040611e-05,0.0,1.482567171252902e-06,2.96515435981154e-06,0.9999973202615583,1.5123583182073117e-17,5.061708808833714e-16,1.0,2.9651543598115398e-08,1.4825871885586378e-09,1.4825671712529021e-09,4.96206787891821e-08,4.9620008830406114e-08,9.92406876195882e-07,3.113413078460397e-08,0.49999951119145597,1.0420275549549055e-06,0.9999990574201785,0.49999951119145597,6.698701900785588e-13,6.69958860970142e-13,0.4999995253600881,0.4999995253600881,0.9999990574201788,2.001465892933991e-14,2.0017308274956845e-14,1.5657497787178448e-08,1.5657497787178448e-08,3.113413078541456e-08
0.5843414133735177,0.0,0.00010072600358724756,0.00010072600358724756,0.00010072600358724756,5.036266180066478e-05,0.0,1.5049360789925892e-06,3.0098924773111354e-06,0.9999973202614382,1.657645684968537e-17,5.547308632090604e-16,1.0,3.0098924773111356e-08,1.5049563983185462e-09,1.5049360789925892e-09,5.036334178658278e-08,5.036266180066479e-08,1.0072600358724758e-06,3.1603881169890233e-08,0.49999951119141894,1.0576233776535355e-06,0.9999990574201059,0.49999951119141894,6.798960098158433e-13,6.799860185598004e-13,0.49999952536005193,0.49999952536005193,0.9999990574201063,2.031663932269473e-14,2.0319328962228522e-14,1.589103641126025e-08,1.589103641126025e-08,3.1603881170943784e-08
0.6309573444801934,0.0,0.0001024305636355815,0.0001024305636355815,0.0001024305636355815,5.1214936071219054e-05,0.0,1.5306035994666303e-06,3.061227864816604e-06,0.9999973202612981,1.820412114949911e-17,6.091210691188825e-16,1.0,3.061227864816604e-08,1.5306242653499738e-09,1.5306035994666302e-09,5.121562756436246e-08,5.121493607121906e-08,1.0243056363558152e-06,3.214290291461562e-08,0.49999951119137576,1.0755212639070635e-06,0.9999990574200216,0.49999951119137576,6.91401717988493e-13,6.914932626519975e-13,0.4999995253600097,0.4999995253600097,0.9999990574200219,2.0663151014364038e-14,2.0665886907488594e-14,1.615906135394757e-08,1.615906135394757e-08,3.214290291497198e-08
0.6812920690579614,0.0,0.00010438279486565206,0.00010438279486565206,0.00010438279486565206,5.2191045096646377e-05,0.0,1.5599965831256718e-06,3.1200142289924847e-06,0.9999973202611346,2.003382921834591e-17,6.702492143272674e-16,1.0,3.1200142289924846e-08,1.5600176458668128e-09,1.559996583125672e-09,5.219174976900569e-08,5.219104509664638e-08,1.0438279486565206e-06,3.276015993307532e-08,0.4999995111913256,1.096019698386398e-06,0.9999990574199231,0.4999995111913256,7.045791964165894e-13,7.046725009551102e-13,0.4999995253599606,0.4999995253599606,0.9999990574199237,2.105995649092565e-14,2.106274537474687e-14,1.646604784272171e-08,1.646604784272171e-08,3.2760159935308906e-08
0.7356422544596414,0.0,0.00010661380249252136,0.00010661380249252136,0.00010661380249252136,5.330654137948458e-05,0.0,1.5935819054133618e-06,3.1871853270297224e-06,0.9999973202609442,2.2097749357031868e-17,7.391867255097546e-16,1.0,3.1871853270297225e-08,1.5936034216163606e-09,1.593581905413362e-09,5.330726111303678e-08,5.3306541379484576e-08,1.0661380249252136e-06,3.346545669240639e-08,0.49999951119126645,1.1194452860965567e-06,0.9999990574198082,0.49999951119126645,7.196384041098932e-13,7.197337208809568e-13,0.4999995253599029,0.4999995253599029,0.9999990574198082,2.151335857762908e-14,2.1516208041835888e-14,1.681689357868065e-08,1.681689357868065e-08,3.346545669287431e-08
0.7943282347242816,0.0,0.00010915740753547492,0.00010915740753547492,0.00010915740753547492,5.4578335315216137e-05,0.0,1.6318669947538258e-06,3.263756022627761e-06,0.9999973202607223,2.4433841115985473e-17,8.171979565455598e-16,1.0,3.263756022627761e-08,1.6318890278739352e-09,1.631866994753826e-09,5.4579072220258787e-08,5.457833531521613e-08,1.0915740753547492e-06,3.4269449256194646e-08,0.49999951119119823,1.146153147549429e-06,0.9999990574196745,0.49999951119119823,7.368076316856934e-13,7.369052440279188e-13,0.4999995253598361,0.4999995253598361,0.9999990574196747,2.203020756654338e-14,2.203312613045044e-14,1.7216924803950483e-08,1.7216924803950483e-08,3.426944925674433e-08
0.8576958985908942,0.0,0.00011205015072636088,0.00011205015072636088,0.00011205015072636088,5.602469714642464e-05,0.0,1.6753998607049663e-06,3.3508223423015134e-06,0.9999973202604635,2.7086868235866552e-17,9.057739738148197e-16,1.0,3.3508223423015136e-08,1.675422481596547e-09,1.6753998607049664e-09,5.6025453579936244e-08,5.602469714642464e-08,1.120501507263609e-06,3.518364590314816e-08,0.4999995111911184,1.1765269608387679e-06,0.9999990574195184,0.4999995111911184,7.563335277632307e-13,7.56433752618772e-13,0.49999952535975817,0.49999952535975817,0.9999990574195188,2.2617901597025945e-14,2.2620898787864374e-14,1.7671897076259876e-08,1.7671897076259876e-08,3.518364590451001e-08
